Sample in Buffer,Sample in Window,TRIGGER,u_ila_probe/test_vector_in[15:0],u_ila_probe/verify_vector_out[15:0],u_ila_probe/verify_we,u_ila_probe/verify_addr[4:0],u_ila_probe/cnt_test[19:0],u_ila_probe/done
Radix - UNSIGNED,UNSIGNED,UNSIGNED,HEX,HEX,HEX,HEX,HEX,HEX
0,0,0,0080,0a00,0,00,00034,0
1,1,0,0080,ea80,0,00,00035,0
2,2,0,0080,ea80,0,00,00036,0
3,3,0,0080,ff00,0,00,00037,0
4,4,0,0080,0900,0,00,00038,0
5,5,0,0080,ef00,0,00,00039,0
6,6,0,0080,1a00,0,00,0003a,0
7,7,0,0080,0b00,0,00,0003b,0
8,8,0,0080,0000,0,00,0003c,0
9,9,0,0080,0000,0,00,0003d,0
10,10,0,0080,0000,0,00,0003e,0
11,11,0,0080,0000,0,00,0003f,0
12,12,0,0080,0900,0,00,00040,0
13,13,0,0080,ef00,0,00,00041,0
14,14,0,0080,0900,0,00,00042,0
15,15,0,0080,ef00,0,00,00043,0
16,16,1,0080,f280,1,00,00044,0
17,17,0,0080,e900,1,08,00045,0
18,18,0,0080,e080,1,04,00046,0
19,19,0,0080,0b00,1,0c,00047,0
20,20,0,0080,e80a,1,01,00048,0
21,21,0,0080,317c,1,09,00049,0
22,22,0,0080,16f6,1,05,0004a,0
23,23,0,0080,0c84,1,0d,0004b,0
24,24,0,0080,1a00,0,00,0004c,0
25,25,0,0080,0b00,0,00,0004d,0
26,26,0,0080,1a00,0,00,0004e,0
27,27,0,0080,0b00,0,00,0004f,0
28,28,0,0080,1a80,1,02,00050,0
29,29,0,0080,2c00,1,0a,00051,0
30,30,0,0080,e680,1,06,00052,0
31,31,0,0080,1600,1,0e,00053,0
32,32,0,0080,fea2,1,03,00054,0
33,33,0,0080,1f8c,1,0b,00055,0
34,34,0,0080,fa5e,1,07,00056,0
35,35,0,0080,d874,1,0f,00057,0
36,36,0,0080,0000,0,00,00058,0
37,37,0,0080,0000,0,00,00058,1
38,38,0,0080,0000,0,00,00058,1
39,39,0,0080,0000,0,00,00058,1
40,40,0,0080,0000,0,00,00058,1
41,41,0,0080,0000,0,00,00058,1
42,42,0,0080,0000,0,00,00058,1
43,43,0,0080,0000,0,00,00058,1
44,44,0,0080,0000,0,00,00058,1
45,45,0,0080,0000,0,00,00058,1
46,46,0,0080,0000,0,00,00058,1
47,47,0,0080,0000,0,00,00058,1
48,48,0,0080,0000,0,00,00058,1
49,49,0,0080,0000,0,00,00058,1
50,50,0,0080,0000,0,00,00058,1
51,51,0,0080,0000,0,00,00058,1
52,52,0,0080,0000,0,00,00058,1
53,53,0,0080,0000,0,00,00058,1
54,54,0,0080,0000,0,00,00058,1
55,55,0,0080,0000,0,00,00058,1
56,56,0,0080,0000,0,00,00058,1
57,57,0,0080,0000,0,00,00058,1
58,58,0,0080,0000,0,00,00058,1
59,59,0,0080,0000,0,00,00058,1
60,60,0,0080,0000,0,00,00058,1
61,61,0,0080,0000,0,00,00058,1
62,62,0,0080,0000,0,00,00058,1
63,63,0,0080,0000,0,00,00058,1
64,64,0,0080,0000,0,00,00058,1
65,65,0,0080,0000,0,00,00058,1
66,66,0,0080,0000,0,00,00058,1
67,67,0,0080,0000,0,00,00058,1
68,68,0,0080,0000,0,00,00058,1
69,69,0,0080,0000,0,00,00058,1
70,70,0,0080,0000,0,00,00058,1
71,71,0,0080,0000,0,00,00058,1
72,72,0,0080,0000,0,00,00058,1
73,73,0,0080,0000,0,00,00058,1
74,74,0,0080,0000,0,00,00058,1
75,75,0,0080,0000,0,00,00058,1
76,76,0,0080,0000,0,00,00058,1
77,77,0,0080,0000,0,00,00058,1
78,78,0,0080,0000,0,00,00058,1
79,79,0,0080,0000,0,00,00058,1
80,80,0,0080,0000,0,00,00058,1
81,81,0,0080,0000,0,00,00058,1
82,82,0,0080,0000,0,00,00058,1
83,83,0,0080,0000,0,00,00058,1
84,84,0,0080,0000,0,00,00058,1
85,85,0,0080,0000,0,00,00058,1
86,86,0,0080,0000,0,00,00058,1
87,87,0,0080,0000,0,00,00058,1
88,88,0,0080,0000,0,00,00058,1
89,89,0,0080,0000,0,00,00058,1
90,90,0,0080,0000,0,00,00058,1
91,91,0,0080,0000,0,00,00058,1
92,92,0,0080,0000,0,00,00058,1
93,93,0,0080,0000,0,00,00058,1
94,94,0,0080,0000,0,00,00058,1
95,95,0,0080,0000,0,00,00058,1
96,96,0,0080,0000,0,00,00058,1
97,97,0,0080,0000,0,00,00058,1
98,98,0,0080,0000,0,00,00058,1
99,99,0,0080,0000,0,00,00058,1
100,100,0,0080,0000,0,00,00058,1
101,101,0,0080,0000,0,00,00058,1
102,102,0,0080,0000,0,00,00058,1
103,103,0,0080,0000,0,00,00058,1
104,104,0,0080,0000,0,00,00058,1
105,105,0,0080,0000,0,00,00058,1
106,106,0,0080,0000,0,00,00058,1
107,107,0,0080,0000,0,00,00058,1
108,108,0,0080,0000,0,00,00058,1
109,109,0,0080,0000,0,00,00058,1
110,110,0,0080,0000,0,00,00058,1
111,111,0,0080,0000,0,00,00058,1
112,112,0,0080,0000,0,00,00058,1
113,113,0,0080,0000,0,00,00058,1
114,114,0,0080,0000,0,00,00058,1
115,115,0,0080,0000,0,00,00058,1
116,116,0,0080,0000,0,00,00058,1
117,117,0,0080,0000,0,00,00058,1
118,118,0,0080,0000,0,00,00058,1
119,119,0,0080,0000,0,00,00058,1
120,120,0,0080,0000,0,00,00058,1
121,121,0,0080,0000,0,00,00058,1
122,122,0,0080,0000,0,00,00058,1
123,123,0,0080,0000,0,00,00058,1
124,124,0,0080,0000,0,00,00058,1
125,125,0,0080,0000,0,00,00058,1
126,126,0,0080,0000,0,00,00058,1
127,127,0,0080,0000,0,00,00058,1
128,128,0,0080,0000,0,00,00058,1
129,129,0,0080,0000,0,00,00058,1
130,130,0,0080,0000,0,00,00058,1
131,131,0,0080,0000,0,00,00058,1
132,132,0,0080,0000,0,00,00058,1
133,133,0,0080,0000,0,00,00058,1
134,134,0,0080,0000,0,00,00058,1
135,135,0,0080,0000,0,00,00058,1
136,136,0,0080,0000,0,00,00058,1
137,137,0,0080,0000,0,00,00058,1
138,138,0,0080,0000,0,00,00058,1
139,139,0,0080,0000,0,00,00058,1
140,140,0,0080,0000,0,00,00058,1
141,141,0,0080,0000,0,00,00058,1
142,142,0,0080,0000,0,00,00058,1
143,143,0,0080,0000,0,00,00058,1
144,144,0,0080,0000,0,00,00058,1
145,145,0,0080,0000,0,00,00058,1
146,146,0,0080,0000,0,00,00058,1
147,147,0,0080,0000,0,00,00058,1
148,148,0,0080,0000,0,00,00058,1
149,149,0,0080,0000,0,00,00058,1
150,150,0,0080,0000,0,00,00058,1
151,151,0,0080,0000,0,00,00058,1
152,152,0,0080,0000,0,00,00058,1
153,153,0,0080,0000,0,00,00058,1
154,154,0,0080,0000,0,00,00058,1
155,155,0,0080,0000,0,00,00058,1
156,156,0,0080,0000,0,00,00058,1
157,157,0,0080,0000,0,00,00058,1
158,158,0,0080,0000,0,00,00058,1
159,159,0,0080,0000,0,00,00058,1
160,160,0,0080,0000,0,00,00058,1
161,161,0,0080,0000,0,00,00058,1
162,162,0,0080,0000,0,00,00058,1
163,163,0,0080,0000,0,00,00058,1
164,164,0,0080,0000,0,00,00058,1
165,165,0,0080,0000,0,00,00058,1
166,166,0,0080,0000,0,00,00058,1
167,167,0,0080,0000,0,00,00058,1
168,168,0,0080,0000,0,00,00058,1
169,169,0,0080,0000,0,00,00058,1
170,170,0,0080,0000,0,00,00058,1
171,171,0,0080,0000,0,00,00058,1
172,172,0,0080,0000,0,00,00058,1
173,173,0,0080,0000,0,00,00058,1
174,174,0,0080,0000,0,00,00058,1
175,175,0,0080,0000,0,00,00058,1
176,176,0,0080,0000,0,00,00058,1
177,177,0,0080,0000,0,00,00058,1
178,178,0,0080,0000,0,00,00058,1
179,179,0,0080,0000,0,00,00058,1
180,180,0,0080,0000,0,00,00058,1
181,181,0,0080,0000,0,00,00058,1
182,182,0,0080,0000,0,00,00058,1
183,183,0,0080,0000,0,00,00058,1
184,184,0,0080,0000,0,00,00058,1
185,185,0,0080,0000,0,00,00058,1
186,186,0,0080,0000,0,00,00058,1
187,187,0,0080,0000,0,00,00058,1
188,188,0,0080,0000,0,00,00058,1
189,189,0,0080,0000,0,00,00058,1
190,190,0,0080,0000,0,00,00058,1
191,191,0,0080,0000,0,00,00058,1
192,192,0,0080,0000,0,00,00058,1
193,193,0,0080,0000,0,00,00058,1
194,194,0,0080,0000,0,00,00058,1
195,195,0,0080,0000,0,00,00058,1
196,196,0,0080,0000,0,00,00058,1
197,197,0,0080,0000,0,00,00058,1
198,198,0,0080,0000,0,00,00058,1
199,199,0,0080,0000,0,00,00058,1
200,200,0,0080,0000,0,00,00058,1
201,201,0,0080,0000,0,00,00058,1
202,202,0,0080,0000,0,00,00058,1
203,203,0,0080,0000,0,00,00058,1
204,204,0,0080,0000,0,00,00058,1
205,205,0,0080,0000,0,00,00058,1
206,206,0,0080,0000,0,00,00058,1
207,207,0,0080,0000,0,00,00058,1
208,208,0,0080,0000,0,00,00058,1
209,209,0,0080,0000,0,00,00058,1
210,210,0,0080,0000,0,00,00058,1
211,211,0,0080,0000,0,00,00058,1
212,212,0,0080,0000,0,00,00058,1
213,213,0,0080,0000,0,00,00058,1
214,214,0,0080,0000,0,00,00058,1
215,215,0,0080,0000,0,00,00058,1
216,216,0,0080,0000,0,00,00058,1
217,217,0,0080,0000,0,00,00058,1
218,218,0,0080,0000,0,00,00058,1
219,219,0,0080,0000,0,00,00058,1
220,220,0,0080,0000,0,00,00058,1
221,221,0,0080,0000,0,00,00058,1
222,222,0,0080,0000,0,00,00058,1
223,223,0,0080,0000,0,00,00058,1
224,224,0,0080,0000,0,00,00058,1
225,225,0,0080,0000,0,00,00058,1
226,226,0,0080,0000,0,00,00058,1
227,227,0,0080,0000,0,00,00058,1
228,228,0,0080,0000,0,00,00058,1
229,229,0,0080,0000,0,00,00058,1
230,230,0,0080,0000,0,00,00058,1
231,231,0,0080,0000,0,00,00058,1
232,232,0,0080,0000,0,00,00058,1
233,233,0,0080,0000,0,00,00058,1
234,234,0,0080,0000,0,00,00058,1
235,235,0,0080,0000,0,00,00058,1
236,236,0,0080,0000,0,00,00058,1
237,237,0,0080,0000,0,00,00058,1
238,238,0,0080,0000,0,00,00058,1
239,239,0,0080,0000,0,00,00058,1
240,240,0,0080,0000,0,00,00058,1
241,241,0,0080,0000,0,00,00058,1
242,242,0,0080,0000,0,00,00058,1
243,243,0,0080,0000,0,00,00058,1
244,244,0,0080,0000,0,00,00058,1
245,245,0,0080,0000,0,00,00058,1
246,246,0,0080,0000,0,00,00058,1
247,247,0,0080,0000,0,00,00058,1
248,248,0,0080,0000,0,00,00058,1
249,249,0,0080,0000,0,00,00058,1
250,250,0,0080,0000,0,00,00058,1
251,251,0,0080,0000,0,00,00058,1
252,252,0,0080,0000,0,00,00058,1
253,253,0,0080,0000,0,00,00058,1
254,254,0,0080,0000,0,00,00058,1
255,255,0,0080,0000,0,00,00058,1
256,256,0,0080,0000,0,00,00058,1
257,257,0,0080,0000,0,00,00058,1
258,258,0,0080,0000,0,00,00058,1
259,259,0,0080,0000,0,00,00058,1
260,260,0,0080,0000,0,00,00058,1
261,261,0,0080,0000,0,00,00058,1
262,262,0,0080,0000,0,00,00058,1
263,263,0,0080,0000,0,00,00058,1
264,264,0,0080,0000,0,00,00058,1
265,265,0,0080,0000,0,00,00058,1
266,266,0,0080,0000,0,00,00058,1
267,267,0,0080,0000,0,00,00058,1
268,268,0,0080,0000,0,00,00058,1
269,269,0,0080,0000,0,00,00058,1
270,270,0,0080,0000,0,00,00058,1
271,271,0,0080,0000,0,00,00058,1
272,272,0,0080,0000,0,00,00058,1
273,273,0,0080,0000,0,00,00058,1
274,274,0,0080,0000,0,00,00058,1
275,275,0,0080,0000,0,00,00058,1
276,276,0,0080,0000,0,00,00058,1
277,277,0,0080,0000,0,00,00058,1
278,278,0,0080,0000,0,00,00058,1
279,279,0,0080,0000,0,00,00058,1
280,280,0,0080,0000,0,00,00058,1
281,281,0,0080,0000,0,00,00058,1
282,282,0,0080,0000,0,00,00058,1
283,283,0,0080,0000,0,00,00058,1
284,284,0,0080,0000,0,00,00058,1
285,285,0,0080,0000,0,00,00058,1
286,286,0,0080,0000,0,00,00058,1
287,287,0,0080,0000,0,00,00058,1
288,288,0,0080,0000,0,00,00058,1
289,289,0,0080,0000,0,00,00058,1
290,290,0,0080,0000,0,00,00058,1
291,291,0,0080,0000,0,00,00058,1
292,292,0,0080,0000,0,00,00058,1
293,293,0,0080,0000,0,00,00058,1
294,294,0,0080,0000,0,00,00058,1
295,295,0,0080,0000,0,00,00058,1
296,296,0,0080,0000,0,00,00058,1
297,297,0,0080,0000,0,00,00058,1
298,298,0,0080,0000,0,00,00058,1
299,299,0,0080,0000,0,00,00058,1
300,300,0,0080,0000,0,00,00058,1
301,301,0,0080,0000,0,00,00058,1
302,302,0,0080,0000,0,00,00058,1
303,303,0,0080,0000,0,00,00058,1
304,304,0,0080,0000,0,00,00058,1
305,305,0,0080,0000,0,00,00058,1
306,306,0,0080,0000,0,00,00058,1
307,307,0,0080,0000,0,00,00058,1
308,308,0,0080,0000,0,00,00058,1
309,309,0,0080,0000,0,00,00058,1
310,310,0,0080,0000,0,00,00058,1
311,311,0,0080,0000,0,00,00058,1
312,312,0,0080,0000,0,00,00058,1
313,313,0,0080,0000,0,00,00058,1
314,314,0,0080,0000,0,00,00058,1
315,315,0,0080,0000,0,00,00058,1
316,316,0,0080,0000,0,00,00058,1
317,317,0,0080,0000,0,00,00058,1
318,318,0,0080,0000,0,00,00058,1
319,319,0,0080,0000,0,00,00058,1
320,320,0,0080,0000,0,00,00058,1
321,321,0,0080,0000,0,00,00058,1
322,322,0,0080,0000,0,00,00058,1
323,323,0,0080,0000,0,00,00058,1
324,324,0,0080,0000,0,00,00058,1
325,325,0,0080,0000,0,00,00058,1
326,326,0,0080,0000,0,00,00058,1
327,327,0,0080,0000,0,00,00058,1
328,328,0,0080,0000,0,00,00058,1
329,329,0,0080,0000,0,00,00058,1
330,330,0,0080,0000,0,00,00058,1
331,331,0,0080,0000,0,00,00058,1
332,332,0,0080,0000,0,00,00058,1
333,333,0,0080,0000,0,00,00058,1
334,334,0,0080,0000,0,00,00058,1
335,335,0,0080,0000,0,00,00058,1
336,336,0,0080,0000,0,00,00058,1
337,337,0,0080,0000,0,00,00058,1
338,338,0,0080,0000,0,00,00058,1
339,339,0,0080,0000,0,00,00058,1
340,340,0,0080,0000,0,00,00058,1
341,341,0,0080,0000,0,00,00058,1
342,342,0,0080,0000,0,00,00058,1
343,343,0,0080,0000,0,00,00058,1
344,344,0,0080,0000,0,00,00058,1
345,345,0,0080,0000,0,00,00058,1
346,346,0,0080,0000,0,00,00058,1
347,347,0,0080,0000,0,00,00058,1
348,348,0,0080,0000,0,00,00058,1
349,349,0,0080,0000,0,00,00058,1
350,350,0,0080,0000,0,00,00058,1
351,351,0,0080,0000,0,00,00058,1
352,352,0,0080,0000,0,00,00058,1
353,353,0,0080,0000,0,00,00058,1
354,354,0,0080,0000,0,00,00058,1
355,355,0,0080,0000,0,00,00058,1
356,356,0,0080,0000,0,00,00058,1
357,357,0,0080,0000,0,00,00058,1
358,358,0,0080,0000,0,00,00058,1
359,359,0,0080,0000,0,00,00058,1
360,360,0,0080,0000,0,00,00058,1
361,361,0,0080,0000,0,00,00058,1
362,362,0,0080,0000,0,00,00058,1
363,363,0,0080,0000,0,00,00058,1
364,364,0,0080,0000,0,00,00058,1
365,365,0,0080,0000,0,00,00058,1
366,366,0,0080,0000,0,00,00058,1
367,367,0,0080,0000,0,00,00058,1
368,368,0,0080,0000,0,00,00058,1
369,369,0,0080,0000,0,00,00058,1
370,370,0,0080,0000,0,00,00058,1
371,371,0,0080,0000,0,00,00058,1
372,372,0,0080,0000,0,00,00058,1
373,373,0,0080,0000,0,00,00058,1
374,374,0,0080,0000,0,00,00058,1
375,375,0,0080,0000,0,00,00058,1
376,376,0,0080,0000,0,00,00058,1
377,377,0,0080,0000,0,00,00058,1
378,378,0,0080,0000,0,00,00058,1
379,379,0,0080,0000,0,00,00058,1
380,380,0,0080,0000,0,00,00058,1
381,381,0,0080,0000,0,00,00058,1
382,382,0,0080,0000,0,00,00058,1
383,383,0,0080,0000,0,00,00058,1
384,384,0,0080,0000,0,00,00058,1
385,385,0,0080,0000,0,00,00058,1
386,386,0,0080,0000,0,00,00058,1
387,387,0,0080,0000,0,00,00058,1
388,388,0,0080,0000,0,00,00058,1
389,389,0,0080,0000,0,00,00058,1
390,390,0,0080,0000,0,00,00058,1
391,391,0,0080,0000,0,00,00058,1
392,392,0,0080,0000,0,00,00058,1
393,393,0,0080,0000,0,00,00058,1
394,394,0,0080,0000,0,00,00058,1
395,395,0,0080,0000,0,00,00058,1
396,396,0,0080,0000,0,00,00058,1
397,397,0,0080,0000,0,00,00058,1
398,398,0,0080,0000,0,00,00058,1
399,399,0,0080,0000,0,00,00058,1
400,400,0,0080,0000,0,00,00058,1
401,401,0,0080,0000,0,00,00058,1
402,402,0,0080,0000,0,00,00058,1
403,403,0,0080,0000,0,00,00058,1
404,404,0,0080,0000,0,00,00058,1
405,405,0,0080,0000,0,00,00058,1
406,406,0,0080,0000,0,00,00058,1
407,407,0,0080,0000,0,00,00058,1
408,408,0,0080,0000,0,00,00058,1
409,409,0,0080,0000,0,00,00058,1
410,410,0,0080,0000,0,00,00058,1
411,411,0,0080,0000,0,00,00058,1
412,412,0,0080,0000,0,00,00058,1
413,413,0,0080,0000,0,00,00058,1
414,414,0,0080,0000,0,00,00058,1
415,415,0,0080,0000,0,00,00058,1
416,416,0,0080,0000,0,00,00058,1
417,417,0,0080,0000,0,00,00058,1
418,418,0,0080,0000,0,00,00058,1
419,419,0,0080,0000,0,00,00058,1
420,420,0,0080,0000,0,00,00058,1
421,421,0,0080,0000,0,00,00058,1
422,422,0,0080,0000,0,00,00058,1
423,423,0,0080,0000,0,00,00058,1
424,424,0,0080,0000,0,00,00058,1
425,425,0,0080,0000,0,00,00058,1
426,426,0,0080,0000,0,00,00058,1
427,427,0,0080,0000,0,00,00058,1
428,428,0,0080,0000,0,00,00058,1
429,429,0,0080,0000,0,00,00058,1
430,430,0,0080,0000,0,00,00058,1
431,431,0,0080,0000,0,00,00058,1
432,432,0,0080,0000,0,00,00058,1
433,433,0,0080,0000,0,00,00058,1
434,434,0,0080,0000,0,00,00058,1
435,435,0,0080,0000,0,00,00058,1
436,436,0,0080,0000,0,00,00058,1
437,437,0,0080,0000,0,00,00058,1
438,438,0,0080,0000,0,00,00058,1
439,439,0,0080,0000,0,00,00058,1
440,440,0,0080,0000,0,00,00058,1
441,441,0,0080,0000,0,00,00058,1
442,442,0,0080,0000,0,00,00058,1
443,443,0,0080,0000,0,00,00058,1
444,444,0,0080,0000,0,00,00058,1
445,445,0,0080,0000,0,00,00058,1
446,446,0,0080,0000,0,00,00058,1
447,447,0,0080,0000,0,00,00058,1
448,448,0,0080,0000,0,00,00058,1
449,449,0,0080,0000,0,00,00058,1
450,450,0,0080,0000,0,00,00058,1
451,451,0,0080,0000,0,00,00058,1
452,452,0,0080,0000,0,00,00058,1
453,453,0,0080,0000,0,00,00058,1
454,454,0,0080,0000,0,00,00058,1
455,455,0,0080,0000,0,00,00058,1
456,456,0,0080,0000,0,00,00058,1
457,457,0,0080,0000,0,00,00058,1
458,458,0,0080,0000,0,00,00058,1
459,459,0,0080,0000,0,00,00058,1
460,460,0,0080,0000,0,00,00058,1
461,461,0,0080,0000,0,00,00058,1
462,462,0,0080,0000,0,00,00058,1
463,463,0,0080,0000,0,00,00058,1
464,464,0,0080,0000,0,00,00058,1
465,465,0,0080,0000,0,00,00058,1
466,466,0,0080,0000,0,00,00058,1
467,467,0,0080,0000,0,00,00058,1
468,468,0,0080,0000,0,00,00058,1
469,469,0,0080,0000,0,00,00058,1
470,470,0,0080,0000,0,00,00058,1
471,471,0,0080,0000,0,00,00058,1
472,472,0,0080,0000,0,00,00058,1
473,473,0,0080,0000,0,00,00058,1
474,474,0,0080,0000,0,00,00058,1
475,475,0,0080,0000,0,00,00058,1
476,476,0,0080,0000,0,00,00058,1
477,477,0,0080,0000,0,00,00058,1
478,478,0,0080,0000,0,00,00058,1
479,479,0,0080,0000,0,00,00058,1
480,480,0,0080,0000,0,00,00058,1
481,481,0,0080,0000,0,00,00058,1
482,482,0,0080,0000,0,00,00058,1
483,483,0,0080,0000,0,00,00058,1
484,484,0,0080,0000,0,00,00058,1
485,485,0,0080,0000,0,00,00058,1
486,486,0,0080,0000,0,00,00058,1
487,487,0,0080,0000,0,00,00058,1
488,488,0,0080,0000,0,00,00058,1
489,489,0,0080,0000,0,00,00058,1
490,490,0,0080,0000,0,00,00058,1
491,491,0,0080,0000,0,00,00058,1
492,492,0,0080,0000,0,00,00058,1
493,493,0,0080,0000,0,00,00058,1
494,494,0,0080,0000,0,00,00058,1
495,495,0,0080,0000,0,00,00058,1
496,496,0,0080,0000,0,00,00058,1
497,497,0,0080,0000,0,00,00058,1
498,498,0,0080,0000,0,00,00058,1
499,499,0,0080,0000,0,00,00058,1
500,500,0,0080,0000,0,00,00058,1
501,501,0,0080,0000,0,00,00058,1
502,502,0,0080,0000,0,00,00058,1
503,503,0,0080,0000,0,00,00058,1
504,504,0,0080,0000,0,00,00058,1
505,505,0,0080,0000,0,00,00058,1
506,506,0,0080,0000,0,00,00058,1
507,507,0,0080,0000,0,00,00058,1
508,508,0,0080,0000,0,00,00058,1
509,509,0,0080,0000,0,00,00058,1
510,510,0,0080,0000,0,00,00058,1
511,511,0,0080,0000,0,00,00058,1
512,512,0,0080,0000,0,00,00058,1
513,513,0,0080,0000,0,00,00058,1
514,514,0,0080,0000,0,00,00058,1
515,515,0,0080,0000,0,00,00058,1
516,516,0,0080,0000,0,00,00058,1
517,517,0,0080,0000,0,00,00058,1
518,518,0,0080,0000,0,00,00058,1
519,519,0,0080,0000,0,00,00058,1
520,520,0,0080,0000,0,00,00058,1
521,521,0,0080,0000,0,00,00058,1
522,522,0,0080,0000,0,00,00058,1
523,523,0,0080,0000,0,00,00058,1
524,524,0,0080,0000,0,00,00058,1
525,525,0,0080,0000,0,00,00058,1
526,526,0,0080,0000,0,00,00058,1
527,527,0,0080,0000,0,00,00058,1
528,528,0,0080,0000,0,00,00058,1
529,529,0,0080,0000,0,00,00058,1
530,530,0,0080,0000,0,00,00058,1
531,531,0,0080,0000,0,00,00058,1
532,532,0,0080,0000,0,00,00058,1
533,533,0,0080,0000,0,00,00058,1
534,534,0,0080,0000,0,00,00058,1
535,535,0,0080,0000,0,00,00058,1
536,536,0,0080,0000,0,00,00058,1
537,537,0,0080,0000,0,00,00058,1
538,538,0,0080,0000,0,00,00058,1
539,539,0,0080,0000,0,00,00058,1
540,540,0,0080,0000,0,00,00058,1
541,541,0,0080,0000,0,00,00058,1
542,542,0,0080,0000,0,00,00058,1
543,543,0,0080,0000,0,00,00058,1
544,544,0,0080,0000,0,00,00058,1
545,545,0,0080,0000,0,00,00058,1
546,546,0,0080,0000,0,00,00058,1
547,547,0,0080,0000,0,00,00058,1
548,548,0,0080,0000,0,00,00058,1
549,549,0,0080,0000,0,00,00058,1
550,550,0,0080,0000,0,00,00058,1
551,551,0,0080,0000,0,00,00058,1
552,552,0,0080,0000,0,00,00058,1
553,553,0,0080,0000,0,00,00058,1
554,554,0,0080,0000,0,00,00058,1
555,555,0,0080,0000,0,00,00058,1
556,556,0,0080,0000,0,00,00058,1
557,557,0,0080,0000,0,00,00058,1
558,558,0,0080,0000,0,00,00058,1
559,559,0,0080,0000,0,00,00058,1
560,560,0,0080,0000,0,00,00058,1
561,561,0,0080,0000,0,00,00058,1
562,562,0,0080,0000,0,00,00058,1
563,563,0,0080,0000,0,00,00058,1
564,564,0,0080,0000,0,00,00058,1
565,565,0,0080,0000,0,00,00058,1
566,566,0,0080,0000,0,00,00058,1
567,567,0,0080,0000,0,00,00058,1
568,568,0,0080,0000,0,00,00058,1
569,569,0,0080,0000,0,00,00058,1
570,570,0,0080,0000,0,00,00058,1
571,571,0,0080,0000,0,00,00058,1
572,572,0,0080,0000,0,00,00058,1
573,573,0,0080,0000,0,00,00058,1
574,574,0,0080,0000,0,00,00058,1
575,575,0,0080,0000,0,00,00058,1
576,576,0,0080,0000,0,00,00058,1
577,577,0,0080,0000,0,00,00058,1
578,578,0,0080,0000,0,00,00058,1
579,579,0,0080,0000,0,00,00058,1
580,580,0,0080,0000,0,00,00058,1
581,581,0,0080,0000,0,00,00058,1
582,582,0,0080,0000,0,00,00058,1
583,583,0,0080,0000,0,00,00058,1
584,584,0,0080,0000,0,00,00058,1
585,585,0,0080,0000,0,00,00058,1
586,586,0,0080,0000,0,00,00058,1
587,587,0,0080,0000,0,00,00058,1
588,588,0,0080,0000,0,00,00058,1
589,589,0,0080,0000,0,00,00058,1
590,590,0,0080,0000,0,00,00058,1
591,591,0,0080,0000,0,00,00058,1
592,592,0,0080,0000,0,00,00058,1
593,593,0,0080,0000,0,00,00058,1
594,594,0,0080,0000,0,00,00058,1
595,595,0,0080,0000,0,00,00058,1
596,596,0,0080,0000,0,00,00058,1
597,597,0,0080,0000,0,00,00058,1
598,598,0,0080,0000,0,00,00058,1
599,599,0,0080,0000,0,00,00058,1
600,600,0,0080,0000,0,00,00058,1
601,601,0,0080,0000,0,00,00058,1
602,602,0,0080,0000,0,00,00058,1
603,603,0,0080,0000,0,00,00058,1
