Sample in Buffer,Sample in Window,TRIGGER,u_ila_probe/test_vector_in[15:0],u_ila_probe/verify_vector_out[15:0],u_ila_probe/verify_we,u_ila_probe/verify_addr[4:0],u_ila_probe/cnt_test[19:0],u_ila_probe/done
Radix - UNSIGNED,UNSIGNED,UNSIGNED,HEX,HEX,HEX,HEX,HEX,HEX
0,0,0,0080,0000,0,00,00000,0
1,1,0,0080,0000,0,00,00000,0
2,2,0,0080,0000,0,00,00000,0
3,3,0,0080,0000,0,00,00000,0
4,4,0,0080,0000,0,00,00000,0
5,5,0,0080,0000,0,00,00000,0
6,6,0,0080,0000,0,00,00000,0
7,7,0,0080,0000,0,00,00000,0
8,8,0,0080,0000,0,00,00000,0
9,9,0,0080,0000,0,00,00000,0
10,10,0,0080,0000,0,00,00000,0
11,11,0,0080,0000,0,00,00000,0
12,12,0,0080,0000,0,00,00000,0
13,13,0,0080,0000,0,00,00000,0
14,14,0,0080,0000,0,00,00000,0
15,15,0,0080,0000,0,00,00000,0
16,16,0,0080,0000,0,00,00000,0
17,17,0,0080,0000,0,00,00000,0
18,18,0,0080,0000,0,00,00000,0
19,19,0,0080,0000,0,00,00000,0
20,20,0,0080,0000,0,00,00000,0
21,21,0,0080,0000,0,00,00000,0
22,22,0,0080,0000,0,00,00000,0
23,23,0,0080,0000,0,00,00000,0
24,24,0,0080,0000,0,00,00000,0
25,25,0,0080,0000,0,00,00000,0
26,26,0,0080,0000,0,00,00000,0
27,27,0,0080,0000,0,00,00000,0
28,28,0,0080,0000,0,00,00000,0
29,29,0,0080,0000,0,00,00000,0
30,30,0,0080,0000,0,00,00000,0
31,31,0,0080,0000,0,00,00000,0
32,32,0,0080,0000,0,00,00000,0
33,33,0,0080,0000,0,00,00000,0
34,34,0,0080,0000,0,00,00000,0
35,35,0,0080,0000,0,00,00000,0
36,36,0,0080,0000,0,00,00000,0
37,37,0,0080,0000,0,00,00000,0
38,38,0,0080,0000,0,00,00000,0
39,39,0,0080,0000,0,00,00000,0
40,40,0,0080,0000,0,00,00000,0
41,41,0,0080,0000,0,00,00000,0
42,42,0,0080,0000,0,00,00000,0
43,43,0,0080,0000,0,00,00000,0
44,44,0,0080,0000,0,00,00000,0
45,45,0,0080,0000,0,00,00000,0
46,46,0,0080,0000,0,00,00000,0
47,47,0,0080,0000,0,00,00000,0
48,48,0,0080,0000,0,00,00000,0
49,49,0,0080,0000,0,00,00000,0
50,50,0,0080,0000,0,00,00000,0
51,51,0,0080,0000,0,00,00000,0
52,52,0,0080,0000,0,00,00000,0
53,53,0,0080,0000,0,00,00000,0
54,54,0,0080,0000,0,00,00000,0
55,55,0,0080,0000,0,00,00000,0
56,56,0,0080,0000,0,00,00000,0
57,57,0,0080,0000,0,00,00000,0
58,58,0,0080,0000,0,00,00000,0
59,59,0,0080,0000,0,00,00000,0
60,60,0,0080,0000,0,00,00000,0
61,61,0,0080,0000,0,00,00000,0
62,62,0,0080,0000,0,00,00000,0
63,63,0,0080,0000,0,00,00000,0
64,64,0,0080,0000,0,00,00000,0
65,65,0,0080,0000,0,00,00000,0
66,66,0,0080,0000,0,00,00000,0
67,67,0,0080,0000,0,00,00000,0
68,68,0,0080,0000,0,00,00000,0
69,69,0,0080,0000,0,00,00000,0
70,70,0,0080,0000,0,00,00000,0
71,71,0,0080,0000,0,00,00000,0
72,72,0,0080,0000,0,00,00000,0
73,73,0,0080,0000,0,00,00000,0
74,74,0,0080,0000,0,00,00000,0
75,75,0,0080,0000,0,00,00000,0
76,76,0,0080,0000,0,00,00000,0
77,77,0,0080,0000,0,00,00000,0
78,78,0,0080,0000,0,00,00000,0
79,79,0,0080,0000,0,00,00000,0
80,80,0,0080,0000,0,00,00000,0
81,81,0,0080,0000,0,00,00000,0
82,82,0,0080,0000,0,00,00000,0
83,83,0,0080,0000,0,00,00000,0
84,84,0,0080,0000,0,00,00000,0
85,85,0,0080,0000,0,00,00000,0
86,86,0,0080,0000,0,00,00000,0
87,87,0,0080,0000,0,00,00000,0
88,88,0,0080,0000,0,00,00000,0
89,89,0,0080,0000,0,00,00000,0
90,90,0,0080,0000,0,00,00000,0
91,91,0,0080,0000,0,00,00000,0
92,92,0,fff3,0000,0,00,00000,0
93,93,0,001b,0000,0,00,00001,0
94,94,0,fff7,0000,0,00,00002,0
95,95,0,0000,0000,0,00,00003,0
96,96,0,0080,fb80,0,00,00004,0
97,97,0,0080,0000,0,00,00005,0
98,98,0,0080,fb80,0,00,00006,0
99,99,0,0080,0000,0,00,00007,0
100,100,0,0080,f500,0,00,00008,0
101,101,0,0080,0d80,0,00,00009,0
102,102,0,0080,fe00,0,00,0000a,0
103,103,0,0080,0d80,0,00,0000b,0
104,104,0,ffe3,0000,0,00,0000c,0
105,105,0,fff7,0000,0,00,0000d,0
106,106,0,001b,0000,0,00,0000e,0
107,107,0,0012,0000,0,00,0000f,0
108,108,0,0080,0d80,0,00,00010,0
109,109,0,0080,0900,0,00,00011,0
110,110,0,0080,0d80,0,00,00012,0
111,111,0,0080,0900,0,00,00013,0
112,112,0,0080,0900,0,00,00014,0
113,113,0,0080,f280,0,00,00015,0
114,114,0,0080,f280,0,00,00016,0
115,115,0,0080,005b,0,00,00017,0
116,116,0,0080,005b,0,00,00018,0
117,117,0,0080,005b,0,00,00019,0
118,118,0,0080,005b,0,00,0001a,0
119,119,0,0080,005b,0,00,0001b,0
120,120,0,0080,005b,0,00,0001c,0
121,121,0,0080,005b,0,00,0001d,0
122,122,0,0080,005b,0,00,0001e,0
123,123,0,0080,005b,0,00,0001f,0
124,124,0,0080,005b,0,00,00020,0
125,125,0,0080,005b,0,00,00021,0
126,126,0,0080,e400,0,00,00022,0
127,127,0,0080,e400,0,00,00023,0
128,128,0,0080,005b,0,00,00024,0
129,129,0,0080,005b,0,00,00025,0
130,130,0,0080,005b,0,00,00026,0
131,131,0,0080,005b,0,00,00027,0
132,132,0,0080,005b,0,00,00028,0
133,133,0,0080,005b,0,00,00029,0
134,134,0,0080,005b,0,00,0002a,0
135,135,0,0080,005b,0,00,0002b,0
136,136,0,0080,005b,0,00,0002c,0
137,137,0,0080,005b,0,00,0002d,0
138,138,0,0080,005b,0,00,0002e,0
139,139,0,0080,ff00,0,00,0002f,0
140,140,0,0080,0480,0,00,00030,0
141,141,0,0080,e27f,0,00,00031,0
142,142,0,0080,0a4f,0,00,00032,0
143,143,0,ffe3,0000,0,00,00033,0
144,144,0,ffee,0000,0,00,00034,0
145,145,0,0006,0000,0,00,00035,0
146,146,0,ffeb,0000,0,00,00036,0
147,147,0,0080,0300,0,00,00037,0
148,148,0,0080,f580,0,00,00038,0
149,149,0,0080,0300,0,00,00039,0
150,150,0,0080,f580,0,00,0003a,0
151,151,0,0080,ee80,0,00,0003b,0
152,152,0,0080,f480,0,00,0003c,0
153,153,0,0080,ec80,0,00,0003d,0
154,154,0,0080,0180,0,00,0003e,0
155,155,0,0080,1180,0,00,0003f,0
156,156,0,0000,0000,0,00,00040,0
157,157,0,ffe9,0000,0,00,00041,0
158,158,0,0014,0000,0,00,00042,0
159,159,0,ffec,0000,0,00,00043,0
160,160,0,0080,0a00,0,00,00044,0
161,161,0,0080,f600,0,00,00045,0
162,162,0,0080,0a00,0,00,00046,0
163,163,0,0080,f600,0,00,00047,0
164,164,0,0080,f600,0,00,00048,0
165,165,0,0080,f600,0,00,00049,0
166,166,0,0080,f600,0,00,0004a,0
167,167,0,0080,005b,0,00,0004b,0
168,168,0,0080,005b,0,00,0004c,0
169,169,0,0080,005b,0,00,0004d,0
170,170,0,0080,005b,0,00,0004e,0
171,171,0,0080,005b,0,00,0004f,0
172,172,0,0080,005b,0,00,00050,0
173,173,0,0080,005b,0,00,00051,0
174,174,0,0080,005b,0,00,00052,0
175,175,0,0080,005b,0,00,00053,0
176,176,0,0080,005b,0,00,00054,0
177,177,0,0080,005b,0,00,00055,0
178,178,0,0080,fe80,0,00,00056,0
179,179,0,0080,fe80,0,00,00057,0
180,180,0,0080,f480,0,00,00058,0
181,181,0,0080,f480,0,00,00059,0
182,182,0,0080,005b,0,00,0005a,0
183,183,0,0080,005b,0,00,0005b,0
184,184,0,0080,005b,0,00,0005c,0
185,185,0,0080,005b,0,00,0005d,0
186,186,0,0080,005b,0,00,0005e,0
187,187,0,0080,005b,0,00,0005f,0
188,188,0,0080,005b,0,00,00060,0
189,189,0,0080,005b,0,00,00061,0
190,190,0,0080,005b,0,00,00062,0
191,191,0,0080,005b,0,00,00063,0
192,192,0,0080,005b,0,00,00064,0
193,193,0,0080,0a00,0,00,00065,0
194,194,0,0080,ea80,0,00,00066,0
195,195,0,0080,060b,0,00,00067,0
196,196,0,0080,082d,0,00,00068,0
197,197,0,0080,0000,0,00,00069,0
198,198,0,0080,0000,0,00,0006a,0
199,199,0,0080,0000,0,00,0006b,0
200,200,0,0080,0000,0,00,0006c,0
201,201,0,0080,f480,0,00,0006d,0
202,202,0,0080,ec80,0,00,0006e,0
203,203,0,0080,f480,0,00,0006f,0
204,204,0,0080,ec80,0,00,00070,0
205,205,0,0080,e980,0,00,00071,0
206,206,0,0080,fa00,0,00,00072,0
207,207,0,0080,0080,0,00,00073,0
208,208,0,0080,2100,0,00,00074,0
209,209,0,0080,0000,0,00,00075,0
210,210,0,0080,0000,0,00,00076,0
211,211,0,0080,0000,0,00,00077,0
212,212,0,0080,0000,0,00,00078,0
213,213,0,0080,0a00,0,00,00079,0
214,214,0,0080,ea80,0,00,0007a,0
215,215,0,0080,0a00,0,00,0007b,0
216,216,0,0080,ea80,0,00,0007c,0
217,217,0,0080,f500,0,00,0007d,0
218,218,0,0080,0900,0,00,0007e,0
219,219,0,0080,ef00,0,00,0007f,0
220,220,0,0080,1a00,0,00,00080,0
221,221,0,0080,0b00,0,00,00081,0
222,222,0,0080,0000,0,00,00082,0
223,223,0,0080,0000,0,00,00083,0
224,224,0,0080,0000,0,00,00084,0
225,225,0,0080,0000,0,00,00085,0
226,226,0,0080,0180,0,00,00086,0
227,227,0,0080,1180,0,00,00087,0
228,228,0,0080,0180,0,00,00088,0
229,229,0,0080,1180,0,00,00089,0
230,230,0,0080,ff80,0,00,0008a,0
231,231,0,0080,1f00,0,00,0008b,0
232,232,0,0080,fc80,0,00,0008c,0
233,233,0,0080,fc00,0,00,0008d,0
234,234,0,0080,0000,0,00,0008e,0
235,235,0,0080,0000,0,00,0008f,0
236,236,0,0080,0000,0,00,00090,0
237,237,0,0080,0000,0,00,00091,0
238,238,0,0080,060b,0,00,00092,0
239,239,0,0080,082d,0,00,00093,0
240,240,0,0080,060b,0,00,00094,0
241,241,0,0080,082d,0,00,00095,0
242,242,0,0080,dc74,0,00,00096,0
243,243,0,0080,e88a,0,00,00097,0
244,244,0,0080,127c,0,00,00098,0
245,245,0,0080,0222,0,00,00099,0
246,246,0,0080,238c,0,00,0009a,0
247,247,0,0080,0000,0,00,0009b,0
248,248,0,0080,0000,0,00,0009c,0
249,249,0,0080,0000,0,00,0009d,0
250,250,0,0080,0000,0,00,0009e,0
251,251,0,0080,0000,0,00,0009f,0
252,252,0,0080,0900,0,00,000a0,0
253,253,0,0080,ef00,0,00,000a1,0
254,254,0,0080,0900,0,00,000a2,0
255,255,0,0080,ef00,0,00,000a3,0
256,256,1,0080,f280,1,00,000a4,0
257,257,0,0080,e900,1,08,000a5,0
258,258,0,0080,e080,1,04,000a6,0
259,259,0,0080,0b00,1,0c,000a7,0
260,260,0,0080,0000,0,00,000a8,0
261,261,0,0080,0000,0,00,000a9,0
262,262,0,0080,0000,0,00,000aa,0
263,263,0,0080,0000,0,00,000ab,0
264,264,0,0080,1a00,0,00,000ac,0
265,265,0,0080,0b00,0,00,000ad,0
266,266,0,0080,1a00,0,00,000ae,0
267,267,0,0080,0b00,0,00,000af,0
268,268,0,0080,1a80,1,02,000b0,0
269,269,0,0080,2c00,1,0a,000b1,0
270,270,0,0080,e680,1,06,000b2,0
271,271,0,0080,1600,1,0e,000b3,0
272,272,0,0080,0000,0,00,000b4,0
273,273,0,0080,0000,0,00,000b5,0
274,274,0,0080,0000,0,00,000b6,0
275,275,0,0080,0000,0,00,000b7,0
276,276,0,0080,e88a,0,00,000b8,0
277,277,0,0080,127c,0,00,000b9,0
278,278,0,0080,e88a,0,00,000ba,0
279,279,0,0080,127c,0,00,000bb,0
280,280,0,0080,e80a,1,01,000bc,0
281,281,0,0080,317c,1,09,000bd,0
282,282,0,0080,16f6,1,05,000be,0
283,283,0,0080,0c84,1,0d,000bf,0
284,284,0,0080,0000,0,00,000c0,0
285,285,0,0080,0000,0,00,000c1,0
286,286,0,0080,0000,0,00,000c2,0
287,287,0,0080,0000,0,00,000c3,0
288,288,0,0080,0222,0,00,000c4,0
289,289,0,0080,238c,0,00,000c5,0
290,290,0,0080,0222,0,00,000c6,0
291,291,0,0080,238c,0,00,000c7,0
292,292,0,0080,fea2,1,03,000c8,0
293,293,0,0080,1f8c,1,0b,000c9,0
294,294,0,0080,fa5e,1,07,000ca,0
295,295,0,0080,d874,1,0f,000cb,0
296,296,0,0080,0000,0,00,000cc,0
297,297,0,0080,0000,0,00,000cc,1
298,298,0,0080,0000,0,00,000cc,1
299,299,0,0080,0000,0,00,000cc,1
300,300,0,0080,0000,0,00,000cc,1
301,301,0,0080,0000,0,00,000cc,1
302,302,0,0080,0000,0,00,000cc,1
303,303,0,0080,0000,0,00,000cc,1
304,304,0,0080,0000,0,00,000cc,1
305,305,0,0080,0000,0,00,000cc,1
306,306,0,0080,0000,0,00,000cc,1
307,307,0,0080,0000,0,00,000cc,1
308,308,0,0080,0000,0,00,000cc,1
309,309,0,0080,0000,0,00,000cc,1
310,310,0,0080,0000,0,00,000cc,1
311,311,0,0080,0000,0,00,000cc,1
312,312,0,0080,0000,0,00,000cc,1
313,313,0,0080,0000,0,00,000cc,1
314,314,0,0080,0000,0,00,000cc,1
315,315,0,0080,0000,0,00,000cc,1
316,316,0,0080,0000,0,00,000cc,1
317,317,0,0080,0000,0,00,000cc,1
318,318,0,0080,0000,0,00,000cc,1
319,319,0,0080,0000,0,00,000cc,1
320,320,0,0080,0000,0,00,000cc,1
321,321,0,0080,0000,0,00,000cc,1
322,322,0,0080,0000,0,00,000cc,1
323,323,0,0080,0000,0,00,000cc,1
324,324,0,0080,0000,0,00,000cc,1
325,325,0,0080,0000,0,00,000cc,1
326,326,0,0080,0000,0,00,000cc,1
327,327,0,0080,0000,0,00,000cc,1
328,328,0,0080,0000,0,00,000cc,1
329,329,0,0080,0000,0,00,000cc,1
330,330,0,0080,0000,0,00,000cc,1
331,331,0,0080,0000,0,00,000cc,1
332,332,0,0080,0000,0,00,000cc,1
333,333,0,0080,0000,0,00,000cc,1
334,334,0,0080,0000,0,00,000cc,1
335,335,0,0080,0000,0,00,000cc,1
336,336,0,0080,0000,0,00,000cc,1
337,337,0,0080,0000,0,00,000cc,1
338,338,0,0080,0000,0,00,000cc,1
339,339,0,0080,0000,0,00,000cc,1
340,340,0,0080,0000,0,00,000cc,1
341,341,0,0080,0000,0,00,000cc,1
342,342,0,0080,0000,0,00,000cc,1
343,343,0,0080,0000,0,00,000cc,1
344,344,0,0080,0000,0,00,000cc,1
345,345,0,0080,0000,0,00,000cc,1
346,346,0,0080,0000,0,00,000cc,1
347,347,0,0080,0000,0,00,000cc,1
348,348,0,0080,0000,0,00,000cc,1
349,349,0,0080,0000,0,00,000cc,1
350,350,0,0080,0000,0,00,000cc,1
351,351,0,0080,0000,0,00,000cc,1
352,352,0,0080,0000,0,00,000cc,1
353,353,0,0080,0000,0,00,000cc,1
354,354,0,0080,0000,0,00,000cc,1
355,355,0,0080,0000,0,00,000cc,1
356,356,0,0080,0000,0,00,000cc,1
357,357,0,0080,0000,0,00,000cc,1
358,358,0,0080,0000,0,00,000cc,1
359,359,0,0080,0000,0,00,000cc,1
360,360,0,0080,0000,0,00,000cc,1
361,361,0,0080,0000,0,00,000cc,1
362,362,0,0080,0000,0,00,000cc,1
363,363,0,0080,0000,0,00,000cc,1
364,364,0,0080,0000,0,00,000cc,1
365,365,0,0080,0000,0,00,000cc,1
366,366,0,0080,0000,0,00,000cc,1
367,367,0,0080,0000,0,00,000cc,1
368,368,0,0080,0000,0,00,000cc,1
369,369,0,0080,0000,0,00,000cc,1
370,370,0,0080,0000,0,00,000cc,1
371,371,0,0080,0000,0,00,000cc,1
372,372,0,0080,0000,0,00,000cc,1
373,373,0,0080,0000,0,00,000cc,1
374,374,0,0080,0000,0,00,000cc,1
375,375,0,0080,0000,0,00,000cc,1
376,376,0,0080,0000,0,00,000cc,1
377,377,0,0080,0000,0,00,000cc,1
378,378,0,0080,0000,0,00,000cc,1
379,379,0,0080,0000,0,00,000cc,1
380,380,0,0080,0000,0,00,000cc,1
381,381,0,0080,0000,0,00,000cc,1
382,382,0,0080,0000,0,00,000cc,1
383,383,0,0080,0000,0,00,000cc,1
384,384,0,0080,0000,0,00,000cc,1
385,385,0,0080,0000,0,00,000cc,1
386,386,0,0080,0000,0,00,000cc,1
387,387,0,0080,0000,0,00,000cc,1
388,388,0,0080,0000,0,00,000cc,1
389,389,0,0080,0000,0,00,000cc,1
390,390,0,0080,0000,0,00,000cc,1
391,391,0,0080,0000,0,00,000cc,1
392,392,0,0080,0000,0,00,000cc,1
393,393,0,0080,0000,0,00,000cc,1
394,394,0,0080,0000,0,00,000cc,1
395,395,0,0080,0000,0,00,000cc,1
396,396,0,0080,0000,0,00,000cc,1
397,397,0,0080,0000,0,00,000cc,1
398,398,0,0080,0000,0,00,000cc,1
399,399,0,0080,0000,0,00,000cc,1
400,400,0,0080,0000,0,00,000cc,1
401,401,0,0080,0000,0,00,000cc,1
402,402,0,0080,0000,0,00,000cc,1
403,403,0,0080,0000,0,00,000cc,1
404,404,0,0080,0000,0,00,000cc,1
405,405,0,0080,0000,0,00,000cc,1
406,406,0,0080,0000,0,00,000cc,1
407,407,0,0080,0000,0,00,000cc,1
408,408,0,0080,0000,0,00,000cc,1
409,409,0,0080,0000,0,00,000cc,1
410,410,0,0080,0000,0,00,000cc,1
411,411,0,0080,0000,0,00,000cc,1
412,412,0,0080,0000,0,00,000cc,1
413,413,0,0080,0000,0,00,000cc,1
414,414,0,0080,0000,0,00,000cc,1
415,415,0,0080,0000,0,00,000cc,1
416,416,0,0080,0000,0,00,000cc,1
417,417,0,0080,0000,0,00,000cc,1
418,418,0,0080,0000,0,00,000cc,1
419,419,0,0080,0000,0,00,000cc,1
420,420,0,0080,0000,0,00,000cc,1
421,421,0,0080,0000,0,00,000cc,1
422,422,0,0080,0000,0,00,000cc,1
423,423,0,0080,0000,0,00,000cc,1
424,424,0,0080,0000,0,00,000cc,1
425,425,0,0080,0000,0,00,000cc,1
426,426,0,0080,0000,0,00,000cc,1
427,427,0,0080,0000,0,00,000cc,1
428,428,0,0080,0000,0,00,000cc,1
429,429,0,0080,0000,0,00,000cc,1
430,430,0,0080,0000,0,00,000cc,1
431,431,0,0080,0000,0,00,000cc,1
432,432,0,0080,0000,0,00,000cc,1
433,433,0,0080,0000,0,00,000cc,1
434,434,0,0080,0000,0,00,000cc,1
435,435,0,0080,0000,0,00,000cc,1
436,436,0,0080,0000,0,00,000cc,1
437,437,0,0080,0000,0,00,000cc,1
438,438,0,0080,0000,0,00,000cc,1
439,439,0,0080,0000,0,00,000cc,1
440,440,0,0080,0000,0,00,000cc,1
441,441,0,0080,0000,0,00,000cc,1
442,442,0,0080,0000,0,00,000cc,1
443,443,0,0080,0000,0,00,000cc,1
444,444,0,0080,0000,0,00,000cc,1
445,445,0,0080,0000,0,00,000cc,1
446,446,0,0080,0000,0,00,000cc,1
447,447,0,0080,0000,0,00,000cc,1
448,448,0,0080,0000,0,00,000cc,1
449,449,0,0080,0000,0,00,000cc,1
450,450,0,0080,0000,0,00,000cc,1
451,451,0,0080,0000,0,00,000cc,1
452,452,0,0080,0000,0,00,000cc,1
453,453,0,0080,0000,0,00,000cc,1
454,454,0,0080,0000,0,00,000cc,1
455,455,0,0080,0000,0,00,000cc,1
456,456,0,0080,0000,0,00,000cc,1
457,457,0,0080,0000,0,00,000cc,1
458,458,0,0080,0000,0,00,000cc,1
459,459,0,0080,0000,0,00,000cc,1
460,460,0,0080,0000,0,00,000cc,1
461,461,0,0080,0000,0,00,000cc,1
462,462,0,0080,0000,0,00,000cc,1
463,463,0,0080,0000,0,00,000cc,1
464,464,0,0080,0000,0,00,000cc,1
465,465,0,0080,0000,0,00,000cc,1
466,466,0,0080,0000,0,00,000cc,1
467,467,0,0080,0000,0,00,000cc,1
468,468,0,0080,0000,0,00,000cc,1
469,469,0,0080,0000,0,00,000cc,1
470,470,0,0080,0000,0,00,000cc,1
471,471,0,0080,0000,0,00,000cc,1
472,472,0,0080,0000,0,00,000cc,1
473,473,0,0080,0000,0,00,000cc,1
474,474,0,0080,0000,0,00,000cc,1
475,475,0,0080,0000,0,00,000cc,1
476,476,0,0080,0000,0,00,000cc,1
477,477,0,0080,0000,0,00,000cc,1
478,478,0,0080,0000,0,00,000cc,1
479,479,0,0080,0000,0,00,000cc,1
480,480,0,0080,0000,0,00,000cc,1
481,481,0,0080,0000,0,00,000cc,1
482,482,0,0080,0000,0,00,000cc,1
483,483,0,0080,0000,0,00,000cc,1
484,484,0,0080,0000,0,00,000cc,1
485,485,0,0080,0000,0,00,000cc,1
486,486,0,0080,0000,0,00,000cc,1
487,487,0,0080,0000,0,00,000cc,1
488,488,0,0080,0000,0,00,000cc,1
489,489,0,0080,0000,0,00,000cc,1
490,490,0,0080,0000,0,00,000cc,1
491,491,0,0080,0000,0,00,000cc,1
492,492,0,0080,0000,0,00,000cc,1
493,493,0,0080,0000,0,00,000cc,1
494,494,0,0080,0000,0,00,000cc,1
495,495,0,0080,0000,0,00,000cc,1
496,496,0,0080,0000,0,00,000cc,1
497,497,0,0080,0000,0,00,000cc,1
498,498,0,0080,0000,0,00,000cc,1
499,499,0,0080,0000,0,00,000cc,1
500,500,0,0080,0000,0,00,000cc,1
501,501,0,0080,0000,0,00,000cc,1
502,502,0,0080,0000,0,00,000cc,1
503,503,0,0080,0000,0,00,000cc,1
504,504,0,0080,0000,0,00,000cc,1
505,505,0,0080,0000,0,00,000cc,1
506,506,0,0080,0000,0,00,000cc,1
507,507,0,0080,0000,0,00,000cc,1
508,508,0,0080,0000,0,00,000cc,1
509,509,0,0080,0000,0,00,000cc,1
510,510,0,0080,0000,0,00,000cc,1
511,511,0,0080,0000,0,00,000cc,1
512,512,0,0080,0000,0,00,000cc,1
513,513,0,0080,0000,0,00,000cc,1
514,514,0,0080,0000,0,00,000cc,1
515,515,0,0080,0000,0,00,000cc,1
516,516,0,0080,0000,0,00,000cc,1
517,517,0,0080,0000,0,00,000cc,1
518,518,0,0080,0000,0,00,000cc,1
519,519,0,0080,0000,0,00,000cc,1
520,520,0,0080,0000,0,00,000cc,1
521,521,0,0080,0000,0,00,000cc,1
522,522,0,0080,0000,0,00,000cc,1
523,523,0,0080,0000,0,00,000cc,1
524,524,0,0080,0000,0,00,000cc,1
525,525,0,0080,0000,0,00,000cc,1
526,526,0,0080,0000,0,00,000cc,1
527,527,0,0080,0000,0,00,000cc,1
528,528,0,0080,0000,0,00,000cc,1
529,529,0,0080,0000,0,00,000cc,1
530,530,0,0080,0000,0,00,000cc,1
531,531,0,0080,0000,0,00,000cc,1
532,532,0,0080,0000,0,00,000cc,1
533,533,0,0080,0000,0,00,000cc,1
534,534,0,0080,0000,0,00,000cc,1
535,535,0,0080,0000,0,00,000cc,1
536,536,0,0080,0000,0,00,000cc,1
537,537,0,0080,0000,0,00,000cc,1
538,538,0,0080,0000,0,00,000cc,1
539,539,0,0080,0000,0,00,000cc,1
540,540,0,0080,0000,0,00,000cc,1
541,541,0,0080,0000,0,00,000cc,1
542,542,0,0080,0000,0,00,000cc,1
543,543,0,0080,0000,0,00,000cc,1
544,544,0,0080,0000,0,00,000cc,1
545,545,0,0080,0000,0,00,000cc,1
546,546,0,0080,0000,0,00,000cc,1
547,547,0,0080,0000,0,00,000cc,1
548,548,0,0080,0000,0,00,000cc,1
549,549,0,0080,0000,0,00,000cc,1
550,550,0,0080,0000,0,00,000cc,1
551,551,0,0080,0000,0,00,000cc,1
552,552,0,0080,0000,0,00,000cc,1
553,553,0,0080,0000,0,00,000cc,1
554,554,0,0080,0000,0,00,000cc,1
555,555,0,0080,0000,0,00,000cc,1
556,556,0,0080,0000,0,00,000cc,1
557,557,0,0080,0000,0,00,000cc,1
558,558,0,0080,0000,0,00,000cc,1
559,559,0,0080,0000,0,00,000cc,1
560,560,0,0080,0000,0,00,000cc,1
561,561,0,0080,0000,0,00,000cc,1
562,562,0,0080,0000,0,00,000cc,1
563,563,0,0080,0000,0,00,000cc,1
564,564,0,0080,0000,0,00,000cc,1
565,565,0,0080,0000,0,00,000cc,1
566,566,0,0080,0000,0,00,000cc,1
567,567,0,0080,0000,0,00,000cc,1
568,568,0,0080,0000,0,00,000cc,1
569,569,0,0080,0000,0,00,000cc,1
570,570,0,0080,0000,0,00,000cc,1
571,571,0,0080,0000,0,00,000cc,1
572,572,0,0080,0000,0,00,000cc,1
573,573,0,0080,0000,0,00,000cc,1
574,574,0,0080,0000,0,00,000cc,1
575,575,0,0080,0000,0,00,000cc,1
576,576,0,0080,0000,0,00,000cc,1
577,577,0,0080,0000,0,00,000cc,1
578,578,0,0080,0000,0,00,000cc,1
579,579,0,0080,0000,0,00,000cc,1
580,580,0,0080,0000,0,00,000cc,1
581,581,0,0080,0000,0,00,000cc,1
582,582,0,0080,0000,0,00,000cc,1
583,583,0,0080,0000,0,00,000cc,1
584,584,0,0080,0000,0,00,000cc,1
585,585,0,0080,0000,0,00,000cc,1
586,586,0,0080,0000,0,00,000cc,1
587,587,0,0080,0000,0,00,000cc,1
588,588,0,0080,0000,0,00,000cc,1
589,589,0,0080,0000,0,00,000cc,1
590,590,0,0080,0000,0,00,000cc,1
591,591,0,0080,0000,0,00,000cc,1
592,592,0,0080,0000,0,00,000cc,1
593,593,0,0080,0000,0,00,000cc,1
594,594,0,0080,0000,0,00,000cc,1
595,595,0,0080,0000,0,00,000cc,1
596,596,0,0080,0000,0,00,000cc,1
597,597,0,0080,0000,0,00,000cc,1
598,598,0,0080,0000,0,00,000cc,1
599,599,0,0080,0000,0,00,000cc,1
600,600,0,0080,0000,0,00,000cc,1
601,601,0,0080,0000,0,00,000cc,1
602,602,0,0080,0000,0,00,000cc,1
603,603,0,0080,0000,0,00,000cc,1
